  can0  0CF00400   [8]  00 7D 7D 00 00 00 FF 7D
  can0  0628A001   [8]  FF FF FF FF FF DF FF C0
  can0  0038A00C   [8]  2C 83 3E 8E 0F 42 80 48
  can0  18FF6121   [8]  00 00 20 00 00 00 00 00
  can0  0810A000   [4]  00 FE 08 00
  can0  0A18A000   [8]  F3 00 48 00 02 00 20 00
  can0  0010A006   [8]  00 00 00 00 00 00 00 00
  can0  0218A006   [8]  00 00 00 00 00 00 00 00
  can0  0CF00400   [8]  00 7D 7D 00 00 00 FF 7D
  can0  0628A001   [8]  FF FF FF FF FF DF FF C0
  can0  0038A00C   [8]  2C 83 3E 8E 00 42 80 48
  can0  0810A000   [4]  00 FE 0C 00
  can0  0818A000   [8]  C7 2F 00 B0 A4 95 40 00
  can0  0CFE6CEE   [8]  00 00 00 00 00 00 00 00
  can0  0C00100B   [8]  DC FF FF FF FF FF FF FF
  can0  0010A006   [8]  00 00 00 00 00 00 00 00
  can0  08FE6E0B   [8]  00 00 00 00 00 00 00 00
  can0  18F0010B   [8]  00 00 F3 FF FF CD FF 0F
  can0  0210A006   [8]  FF 0C FF 00 00 00 00 00
  can0  18FF2100   [8]  C3 10 A0 01 00 01 10 C0
  can0  0628A001   [8]  FF FF FF FF FF DF FF C0
  can0  0CF00300   [8]  D1 00 00 FF FF FF 00 FF
  can0  0A1CA001   [8]  F0 FF FF FC FF 13 8E F9
  can0  0A18A001   [8]  FF FF FF FF FF FF FF FB
  can0  0CF00400   [8]  00 7D 7D 00 00 00 FF 7D
  can0  18FEDF00   [8]  89 00 00 00 7D 00 00 F0
  can0  0038A00C   [8]  2C 83 3E 8E 01 42 80 48
  can0  18FF0072   [8]  00 E0 FF 00 00 00 00 00
  can0  0810A000   [4]  00 FE 00 00
  can0  0A28A000   [4]  00 00 00 58
  can0  0C010321   [8]  00 00 00 00 00 00 00 00
  can0  18FFC321   [8]  00 00 40 00 00 04 FF AF
  can0  0010A006   [8]  00 00 00 00 00 00 00 00
  can0  0218A006   [8]  00 00 00 00 00 00 00 00
  can0  0CF00400   [8]  00 7D 7D 00 00 00 FF 7D
  can0  0628A001   [8]  FF FF FF FF FF DF FF C0
  can0  0038A00C   [8]  2C 83 3E 8E 02 42 80 48
  can0  0810A000   [4]  00 FE 04 00
  can0  0CFE6CEE   [8]  00 00 00 00 00 00 00 00
  can0  18F0010B   [8]  00 00 F3 FF FF CD FF 0F
  can0  0010A006   [8]  00 00 00 00 00 00 00 00
  can0  08FE6E0B   [8]  00 00 00 00 00 00 00 00
  can0  0210A006   [8]  FF 0E FF 00 00 00 00 00
  can0  0CF00400   [8]  00 7D 7D 00 00 00 FF 7D
  can0  0628A001   [8]  FF FF FF FF FF DF FF C0
  can0  18FEF200   [8]  00 00 00 FB 00 00 FF FF
  can0  0816A101   [8]  00 00 8F C0 00 00 00 00
  can0  0038A00C   [8]  2C 83 3E 8E 03 42 80 48
  can0  0810A000   [4]  00 FE 08 00
  can0  18FFC521   [8]  C5 1C 00 00 00 00 00 00
  can0  0C00000B   [8]  DC 00 FF FF FF FF FF FF
  can0  0010A006   [8]  00 00 00 00 00 00 00 00
  can0  0218A006   [8]  00 00 00 00 00 00 00 00
  can0  0CF00400   [8]  00 7D 7D 00 00 00 FF 7D
  can0  0628A001   [8]  FF FF FF FF FF DF FF C0
  can0  0038A00C   [8]  2C 83 3E 8E 04 42 80 48
  can0  18FF6121   [8]  00 00 00 00 00 00 00 00
  can0  0810A000   [4]  00 FE 0C 00
  can0  0CFE6CEE   [8]  00 00 00 00 00 00 00 00
  can0  18FFFF21   [8]  00 00 00 00 14 2A 23 00
  can0  18F0010B   [8]  00 00 F3 FF FF CD FF 0F
  can0  0010A006   [8]  00 00 00 00 00 00 00 00
  can0  08FE6E0B   [8]  00 00 00 00 00 00 00 00
  can0  0210A006   [8]  FF 00 FF 00 00 00 00 00
  can0  0CF0130B   [8]  A2 79 00 FF 00 FF FC FF
  can0  18FEBF0B   [8]  00 00 7D 7D 7D 7D FF FF
  can0  0CF00400   [8]  00 7D 7D 00 00 00 FF 7D
  can0  0628A001   [8]  FF FF FF FF FF DF FF C0
  can0  0038A00C   [8]  2C 83 3E 8E 05 42 80 48
  can0  0810A000   [4]  00 FE 00 00
  can0  0A18A006   [8]  00 00 00 00 00 10 00 10
  can0  0010A006   [8]  00 00 00 00 00 00 00 00
  can0  0218A006   [8]  00 00 00 00 00 00 00 00
  can0  18FF2100   [8]  C3 10 A0 01 00 01 10 C0
  can0  0628A001   [8]  FF FF FF FF FF DF FF C0
  can0  0CF00300   [8]  D1 00 00 FF FF FF 00 FF
  can0  0CF00400   [8]  00 7D 7D 00 00 00 FF 7D
  can0  18FEF100   [8]  C7 00 00 04 01 00 00 C0
  can0  0A1CA001   [8]  F0 FF FF FC FF 13 8E F9
  can0  0A18A001   [8]  FF FF FF FF FF FF FF FB
  can0  0038A00C   [8]  2C 83 3E 8E 06 42 80 48
  can0  18FF0072   [8]  00 E0 FF 00 00 00 00 00
  can0  0810A000   [4]  00 FE 04 00
  can0  0C010321   [8]  00 00 00 00 00 00 00 00
  can0  0CFE6CEE   [8]  00 00 00 00 00 00 00 00
  can0  18FFC321   [8]  00 00 40 00 00 04 FF AF
  can0  18F0010B   [8]  00 00 F3 FF FF CD FF 0F
  can0  0010A006   [8]  00 00 00 00 00 00 00 00
  can0  08FE6E0B   [8]  00 00 00 00 00 00 00 00
  can0  0210A006   [8]  FF 02 FF 00 00 00 00 00
  can0  18FE4F0B   [8]  C4 00 FF FF FF FF FF FF
  can0  0CF00400   [8]  00 7D 7D 00 00 00 FF 7D
  can0  0628A001   [8]  FF FF FF FF FF DF FF C0
  can0  0038A00C   [8]  2C 83 3E 8E 07 42 80 48
  can0  0810A000   [4]  00 FE 08 00
  can0  0010A006   [8]  00 00 00 00 00 00 00 00
  can0  0218A006   [8]  00 00 00 00 00 00 00 00
  can0  18F0090B   [8]  98 96 60 91 7D 5F 7C 7A
  can0  0CF00400   [8]  00 7D 7D 00 00 00 FF 7D
  can0  0628A001   [8]  FF FF FF FF FF DF FF C0
  can0  0038A00C   [8]  2C 83 3E 8E 08 42 80 48
  can0  0810A000   [4]  00 FE 0C 00
  can0  0CFE6CEE   [8]  00 00 00 00 00 00 00 00
  can0  18F0010B   [8]  00 00 F3 FF FF CD FF 0F
  can0  0010A006   [8]  00 00 00 00 00 00 00 00
  can0  08FE6E0B   [8]  00 00 00 00 00 00 00 00
  can0  0210A006   [8]  FF 04 FF 00 00 00 00 00
  can0  0CF00400   [8]  00 7D 7D 00 00 00 FF 7D
  can0  0628A001   [8]  FF FF FF FF FF DF FF C0
  can0  0038A00C   [8]  2C 83 3E 8E 09 42 80 48
  can0  18FF6121   [8]  00 00 10 00 00 00 00 00
  can0  0A18A000   [8]  F3 00 48 00 02 00 20 00
  can0  0810A000   [4]  00 FE 00 00
  can0  0010A006   [8]  00 00 00 00 00 00 00 00
  can0  0218A006   [8]  00 00 00 00 00 00 00 00
  can0  0CF00400   [8]  00 7D 7D 00 00 00 FF 7D
  can0  0628A001   [8]  FF FF FF FF FF DF FF C0
  can0  0038A00C   [8]  2C 83 3E 8E 0A 42 80 48
  can0  0810A000   [4]  00 FE 04 00
  can0  0818A000   [8]  C7 2F 00 B0 A4 95 40 00
  can0  0CFE6CEE   [8]  00 00 00 00 00 00 00 00
  can0  18F0010B   [8]  00 00 F3 FF FF CD FF 0F
  can0  0010A006   [8]  00 00 00 00 00 00 00 00
  can0  08FE6E0B   [8]  00 00 00 00 00 00 00 00
  can0  0210A006   [8]  FF 06 FF 00 00 00 00 00
  can0  18FF2100   [8]  C3 10 A0 01 00 01 10 C0
  can0  0CF00300   [8]  D1 00 00 FF FF FF 00 FF
  can0  0628A001   [8]  FF FF FF FF FF DF FF C0
  can0  0A1CA001   [8]  F0 FF FF FC FF 13 8E F9
  can0  0CF00400   [8]  00 7D 7D 00 00 00 FF 7D
  can0  0A18A001   [8]  FF FF FF FF FF FF FF FB
  can0  0038A00C   [8]  2C 83 3E 8E 0B 42 80 48
  can0  18FF0072   [8]  00 E0 FF 00 00 00 00 00
  can0  0810A000   [4]  00 FE 08 00
  can0  0A28A000   [4]  00 00 00 58
  can0  0C010321   [8]  00 00 00 00 00 00 00 00
  can0  18FFC321   [8]  00 00 40 00 00 04 FF AF
  can0  0010A006   [8]  00 00 00 00 00 00 00 00
  can0  0218A006   [8]  00 00 00 00 00 00 00 00
  can0  0CF00400   [8]  00 7D 7D 00 00 00 FF 7D
  can0  0628A001   [8]  FF FF FF FF FF DF FF C0
  can0  0038A00C   [8]  2C 83 3E 8E 0C 42 80 48
  can0  0810A000   [4]  00 FE 0C 00
  can0  0CFE6CEE   [8]  00 00 00 00 00 00 00 00
  can0  18F0010B   [8]  00 00 F3 FF FF CD FF 0F
  can0  0010A006   [8]  00 00 00 00 00 00 00 00
  can0  08FE6E0B   [8]  00 00 00 00 00 00 00 00
  can0  0210A006   [8]  FF 08 FF 00 00 00 00 00
  can0  0CF00400   [8]  00 7D 7D 00 00 00 FF 7D
  can0  0628A001   [8]  FF FF FF FF FF DF FF C0
  can0  18FEF200   [8]  00 00 00 FB 00 00 FF FF
  can0  0816A101   [8]  00 00 8F C0 00 00 00 00
  can0  0038A00C   [8]  2C 83 3E 8E 0D 42 80 48
  can0  0810A000   [4]  00 FE 00 00
  can0  18FFC521   [8]  C5 1C 00 00 00 00 00 00
  can0  0C00000B   [8]  DC 00 FF FF FF FF FF FF
  can0  0010A006   [8]  00 00 00 00 00 00 00 00
  can0  0218A006   [8]  00 00 00 00 00 00 00 00
  can0  0CF00400   [8]  00 7D 7D 00 00 00 FF 7D
  can0  0628A001   [8]  FF FF FF FF FF DF FF C0
  can0  0038A00C   [8]  2C 83 3E 8E 0E 42 80 48
  can0  18FF6121   [8]  00 00 20 00 00 00 00 00
  can0  0810A000   [4]  00 FE 04 00
  can0  0CFE6CEE   [8]  00 00 00 00 00 00 00 00
  can0  18F0010B   [8]  00 00 F3 FF FF CD FF 0F
  can0  0010A006   [8]  00 00 00 00 00 00 00 00
  can0  08FE6E0B   [8]  00 00 00 00 00 00 00 00
  can0  0210A006   [8]  FF 0A FF 00 00 00 00 00
  can0  0CF0130B   [8]  A2 79 00 FF 00 FF FC FF
  can0  18FEBF0B   [8]  00 00 7D 7D 7D 7D FF FF
  can0  0CF00400   [8]  00 7D 7D 00 00 00 FF 7D
  can0  0628A001   [8]  FF FF FF FF FF DF FF C0
  can0  0038A00C   [8]  2C 83 3E 8E 0F 42 80 48
  can0  0810A000   [4]  00 FE 08 00
  can0  0A18A006   [8]  00 00 00 00 00 10 00 10
  can0  0010A006   [8]  00 00 00 00 00 00 00 00
  can0  0218A006   [8]  00 00 00 00 00 00 00 00
  can0  18FF2100   [8]  C3 10 A0 01 00 01 10 C0
  can0  0628A001   [8]  FF FF FF FF FF DF FF C0
  can0  0CF00300   [8]  D1 00 00 FF FF FF 00 FF
  can0  0CF00400   [8]  00 7D 7D 00 00 00 FF 7D
  can0  18FEF100   [8]  C7 00 00 04 01 00 00 C0
  can0  0A1CA001   [8]  F0 FF FF FC FF 13 8E F9
  can0  0A18A001   [8]  FF FF FF FF FF FF FF FB
  can0  0038A00C   [8]  2C 83 3E 8E 00 42 80 48
  can0  18FF0072   [8]  00 E0 FF 00 00 00 00 00
  can0  0810A000   [4]  00 FE 0C 00
  can0  0C010321   [8]  00 00 00 00 00 00 00 00
  can0  0CFE6CEE   [8]  00 00 00 00 00 00 00 00
  can0  18FFC321   [8]  00 00 40 00 00 04 FF AF
  can0  18F0010B   [8]  00 00 F3 FF FF CD FF 0F
  can0  0010A006   [8]  00 00 00 00 00 00 00 00
  can0  08FE6E0B   [8]  00 00 00 00 00 00 00 00
  can0  0210A006   [8]  FF 0C FF 00 00 00 00 00
  can0  18FE4F0B   [8]  C4 00 FF FF FF FF FF FF
  can0  0CF00400   [8]  00 7D 7D 00 00 00 FF 7D
  can0  0628A001   [8]  FF FF FF FF FF DF FF C0
  can0  0038A00C   [8]  2C 83 3E 8E 01 42 80 48
  can0  0A18A00C   [1]  00
  can0  0810A000   [4]  00 FE 00 00
  can0  0010A006   [8]  00 00 00 00 00 00 00 00
  can0  0218A006   [8]  00 00 00 00 00 00 00 00
  can0  18F0090B   [8]  98 96 60 81 7D 5F 7C 7A
  can0  0CF00400   [8]  00 7D 7D 00 00 00 FF 7D
  can0  0628A001   [8]  FF FF FF FF FF DF FF C0
  can0  0038A00C   [8]  2C 83 3E 8E 02 42 80 48
  can0  0810A000   [4]  00 FE 04 00
  can0  0CFE6CEE   [8]  00 00 00 00 00 00 00 00
  can0  18F0010B   [8]  00 00 F3 FF FF CD FF 0F
  can0  0010A006   [8]  00 00 00 00 00 00 00 00
  can0  08FE6E0B   [8]  00 00 00 00 00 00 00 00
  can0  0210A006   [8]  FF 0E FF 00 00 00 00 00
  can0  0CF00400   [8]  00 7D 7D 00 00 00 FF 7D
  can0  0628A001   [8]  FF FF FF FF FF DF FF C0
  can0  0038A00C   [8]  2C 83 3E 8E 03 42 80 48
  can0  18FF6121   [8]  00 00 00 00 00 00 00 00
  can0  0810A000   [4]  00 FE 08 00
  can0  0A18A000   [8]  F3 00 48 00 02 00 20 00
  can0  0C1CA000   [8]  00 00 68 00 00 00 00 00
  can0  0010A006   [8]  00 00 00 00 00 00 00 00
  can0  0218A006   [8]  00 00 00 00 00 00 00 00
  can0  0CF00400   [8]  00 7D 7D 00 00 00 FF 7D
  can0  0628A001   [8]  FF FF FF FF FF DF FF C0
  can0  0038A00C   [8]  2C 83 3E 8E 04 42 80 48
  can0  0810A000   [4]  00 FE 0C 00
  can0  0818A000   [8]  C7 2F 00 B0 A4 95 40 00
  can0  0CFE6CEE   [8]  00 00 00 00 00 00 00 00
  can0  0C00100B   [8]  DC FF FF FF FF FF FF FF
  can0  0010A006   [8]  00 00 00 00 00 00 00 00
  can0  08FE6E0B   [8]  00 00 00 00 00 00 00 00
  can0  18F0010B   [8]  00 00 F3 FF FF CD FF 0F
  can0  0210A006   [8]  FF 00 FF 00 00 00 00 00
  can0  18FF2100   [8]  C3 10 A0 01 00 01 10 C0
  can0  0CF00300   [8]  D1 00 00 FF FF FF 00 FF
  can0  0628A001   [8]  FF FF FF FF FF DF FF C0
  can0  0A1CA001   [8]  F0 FF FF FC FF 13 8E F9
  can0  0CF00400   [8]  00 7D 7D 00 00 00 FF 7D
  can0  0A18A001   [8]  FF FF FF FF FF FF FF FB
  can0  0038A00C   [8]  2C 83 3E 8E 05 42 80 48
  can0  18FF0072   [8]  00 E0 FF 00 00 00 00 00
  can0  0810A000   [4]  00 FE 00 00
  can0  0A28A000   [4]  00 00 00 58
  can0  0C010321   [8]  00 00 00 00 00 00 00 00
  can0  18FFC321   [8]  00 00 40 00 00 04 FF AF
  can0  0010A006   [8]  00 00 00 00 00 00 00 00
  can0  0218A006   [8]  00 00 00 00 00 00 00 00
  can0  0CF00400   [8]  00 7D 7D 00 00 00 FF 7D
  can0  0628A001   [8]  FF FF FF FF FF DF FF C0
  can0  0038A00C   [8]  2C 83 3E 8E 06 42 80 48
  can0  0810A000   [4]  00 FE 04 00
  can0  0CFE6CEE   [8]  00 00 00 00 00 00 00 00
  can0  18F0010B   [8]  00 00 F3 FF FF CD FF 0F
  can0  0010A006   [8]  00 00 00 00 00 00 00 00
  can0  08FE6E0B   [8]  00 00 00 00 00 00 00 00
  can0  0210A006   [8]  FF 02 FF 00 00 00 00 00
  can0  18ECFF00   [8]  20 1C 00 04 FF E3 FE 00
  can0  0628A001   [8]  FF FF FF FF FF DF FF C0
  can0  0CF00400   [8]  00 7D 7D 00 00 00 FF 7D
  can0  18FEF500   [8]  C9 FF FF FF FF 46 FF FF
  can0  0816A101   [8]  00 00 8F C0 00 00 00 00
  can0  18FDB200   [8]  FF FF FF FF 00 FE FF FF
  can0  18FEF200   [8]  00 00 00 FB 00 00 FF FF
  can0  18FEEE00   [8]  37 36 FF FF FF FF FF FF
  can0  18FEE400   [8]  30 FF FF FC FC FF FF FF
  can0  18FEF700   [8]  FF FF FF FF 16 01 16 01
  can0  0038A00C   [8]  2C 83 3E 8E 07 42 80 48
  can0  0810A000   [4]  00 FE 08 00
  can0  18FFC521   [8]  C5 1C 00 00 00 00 00 00
  can0  0C00000B   [8]  DC 00 FF FF FF FF FF FF
  can0  0010A006   [8]  00 00 00 00 00 00 00 00
  can0  0218A006   [8]  00 00 00 00 00 00 00 00
  can0  0CF00400   [8]  00 7D 7D 00 00 00 FF 7D
  can0  0628A001   [8]  FF FF FF FF FF DF FF C0
  can0  0038A00C   [8]  2C 83 3E 8E 08 42 80 48
  can0  18FF6121   [8]  00 00 10 00 00 00 00 00
  can0  0810A000   [4]  00 FE 0C 00
  can0  0CFE6CEE   [8]  00 00 00 00 00 00 00 00
  can0  18D0EE21   [8]  FA 00 00 00 00 00 00 00
  can0  18FEFC21   [8]  00 19 00 00 00 00 00 00
  can0  18F0010B   [8]  00 00 F3 FF FF CD FF 0F
  can0  0010A006   [8]  00 00 00 00 00 00 00 00
  can0  08FE6E0B   [8]  00 00 00 00 00 00 00 00
  can0  0210A006   [8]  FF 04 FF 00 00 00 00 00
  can0  0CF0130B   [8]  A2 79 00 FF 00 FF FC FF
  can0  18FEBF0B   [8]  00 00 7D 7D 7D 7D FF FF
  can0  0CF00400   [8]  00 7D 7D 00 00 00 FF 7D
  can0  0628A001   [8]  FF FF FF FF FF DF FF C0
  can0  0038A00C   [8]  2C 83 3E 8E 09 42 80 48
  can0  0810A000   [4]  00 FE 00 00
  can0  0A18A006   [8]  00 00 00 00 00 10 00 10
  can0  0010A006   [8]  00 00 00 00 00 00 00 00
  can0  0218A006   [8]  00 00 00 00 00 00 00 00
  can0  18FF2100   [8]  C3 10 A0 01 00 01 10 C0
  can0  0CF00300   [8]  D1 00 00 FF FF FF 00 FF
  can0  0628A001   [8]  FF FF FF FF FF DF FF C0
  can0  0CF00400   [8]  00 7D 7D 00 00 00 FF 7D
  can0  18FEEF00   [8]  FF FF FF 19 FF FF FF FF
  can0  18FEF100   [8]  C7 00 00 04 01 00 00 C0
  can0  18FEF600   [8]  FF 32 48 32 FF 80 25 FF
  can0  18FEDF00   [8]  89 00 00 00 7D 00 00 F0
  can0  0A1CA001   [8]  F0 FF FF FC FF 13 8E F9
  can0  0A18A001   [8]  FF FF FF FF FF FF FF FB
  can0  0038A00C   [8]  2C 83 3E 8E 0A 42 80 48
  can0  18FF0072   [8]  00 E0 FF 00 00 00 00 00
  can0  0810A000   [4]  00 FE 04 00
  can0  0C010321   [8]  00 00 00 00 00 00 00 00
  can0  0CFE6CEE   [8]  00 00 00 00 00 00 00 00
  can0  18FFC321   [8]  00 00 40 00 00 04 FF AF
  can0  18F0010B   [8]  00 00 F3 FF FF CD FF 0F
  can0  0010A006   [8]  00 00 00 00 00 00 00 00
  can0  08FE6E0B   [8]  00 00 00 00 00 00 00 00
  can0  0210A006   [8]  FF 06 FF 00 00 00 00 00
  can0  18FE4F0B   [8]  C4 00 FF FF FF FF FF FF
  can0  0CF00400   [8]  00 7D 7D 00 00 00 FF 7D
  can0  0628A001   [8]  FF FF FF FF FF DF FF C0
  can0  0038A00C   [8]  2C 83 3E 8E 0B 42 80 48
  can0  0810A000   [4]  00 FE 08 00
  can0  0010A006   [8]  00 00 00 00 00 00 00 00
  can0  0218A006   [8]  00 00 00 00 00 00 00 00
  can0  18F0090B   [8]  98 96 60 79 7D 3F 7C 7A
  can0  18EBFF00   [8]  01 00 19 DC 60 6D DC 10
  can0  0628A001   [8]  FF FF FF FF FF DF FF C0
  can0  0CF00400   [8]  00 7D 7D 00 00 00 FF 7D
  can0  0038A00C   [8]  2C 83 3E 8E 0C 42 80 48
  can0  0810A000   [4]  00 FE 0C 00
  can0  0CFE6CEE   [8]  00 00 00 00 00 00 00 00
  can0  18F0010B   [8]  00 00 F3 FF FF CD FF 0F
  can0  0010A006   [8]  00 00 00 00 00 00 00 00
  can0  08FE6E0B   [8]  00 00 00 00 00 00 00 00
  can0  0210A006   [8]  FF 08 FF 00 00 00 00 00
  can0  0CF00400   [8]  00 7D 7D 00 00 00 FF 7D
  can0  0628A001   [8]  FF FF FF FF FF DF FF C0
  can0  0038A00C   [8]  2C 83 3E 8E 0D 42 80 48
  can0  18FF6121   [8]  00 00 20 00 00 00 00 00
  can0  0810A000   [4]  00 FE 00 00
  can0  0A18A000   [8]  F3 00 48 00 02 00 20 00
  can0  18FEC1EE   [8]  8B 3C E7 00 00 00 00 00
  can0  0010A006   [8]  00 00 00 00 00 00 00 00
  can0  0218A006   [8]  00 00 00 00 00 00 00 00
  can0  0CF00400   [8]  00 7D 7D 00 00 00 FF 7D
  can0  0628A001   [8]  FF FF FF FF FF DF FF C0
  can0  0038A00C   [8]  2C 83 3E 8E 0E 42 80 48
  can0  0810A000   [4]  00 FE 04 00
  can0  0818A000   [8]  C7 2F 00 B0 A4 95 40 00
  can0  0CFE6CEE   [8]  00 00 00 00 00 00 00 00
  can0  18F0010B   [8]  00 00 F3 FF FF CD FF 0F
  can0  0010A006   [8]  00 00 00 00 00 00 00 00
  can0  08FE6E0B   [8]  00 00 00 00 00 00 00 00
  can0  0210A006   [8]  FF 0A FF 00 00 00 00 00
  can0  18FF2100   [8]  C3 10 A0 01 00 01 10 C0
  can0  0CF00300   [8]  D1 00 00 FF FF FF 00 FF
  can0  0628A001   [8]  FF FF FF FF FF DF FF C0
  can0  0A1CA001   [8]  F0 FF FF FC FF 13 8E F9
  can0  0CF00400   [8]  00 7D 7D 00 00 00 FF 7D
  can0  0A18A001   [8]  FF FF FF FF FF FF FF FB
  can0  0038A00C   [8]  2C 83 3E 8E 0F 42 80 48
  can0  18FF0072   [8]  00 E0 FF 00 00 00 00 00
  can0  0810A000   [4]  00 FE 08 00
  can0  0A28A000   [4]  00 00 00 58
  can0  0C010321   [8]  00 00 00 00 00 00 00 00
  can0  18FFC321   [8]  00 00 40 00 00 04 FF AF
  can0  0010A006   [8]  00 00 00 00 00 00 00 00
  can0  0218A006   [8]  00 00 00 00 00 00 00 00
  can0  0CF00400   [8]  00 7D 7D 00 00 00 FF 7D
  can0  0628A001   [8]  FF FF FF FF FF DF FF C0
  can0  0038A00C   [8]  2C 83 3E 8E 00 42 80 48
  can0  0810A000   [4]  00 FE 0C 00
  can0  0CFE6CEE   [8]  00 00 00 00 00 00 00 00
  can0  18F0010B   [8]  00 00 F3 FF FF CD FF 0F
  can0  0010A006   [8]  00 00 00 00 00 00 00 00
  can0  08FE6E0B   [8]  00 00 00 00 00 00 00 00
  can0  0210A006   [8]  FF 0C FF 00 00 00 00 00
  can0  18EBFF00   [8]  02 27 DC A0 41 DC 40 5D
  can0  0628A001   [8]  FF FF FF FF FF DF FF C0
  can0  0CF00400   [8]  00 7D 7D 00 00 00 FF 7D
  can0  18FEF200   [8]  00 00 00 FB 00 00 FF FF
  can0  0816A101   [8]  00 00 8F C0 00 00 00 00
  can0  0038A00C   [8]  2C 83 3E 8E 01 42 80 48
  can0  0810A000   [4]  00 FE 00 00
  can0  18FFC521   [8]  C5 1C 00 00 00 00 00 00
  can0  0C00000B   [8]  DC 00 FF FF FF FF FF FF
  can0  0010A006   [8]  00 00 00 00 00 00 00 00
  can0  0218A006   [8]  00 00 00 00 00 00 00 00
  can0  0CF00400   [8]  00 7D 7D 00 00 00 FF 7D
  can0  0628A001   [8]  FF FF FF FF FF DF FF C0
  can0  0038A00C   [8]  2C 83 3E 8E 02 42 80 48
  can0  18FF6121   [8]  00 00 00 00 00 00 00 00
  can0  0810A000   [4]  00 FE 04 00
  can0  0CFE6CEE   [8]  00 00 00 00 00 00 00 00
  can0  18F0010B   [8]  00 00 F3 FF FF CD FF 0F
  can0  0010A006   [8]  00 00 00 00 00 00 00 00
  can0  08FE6E0B   [8]  00 00 00 00 00 00 00 00
  can0  0210A006   [8]  FF 0E FF 00 00 00 00 00
  can0  0CF0130B   [8]  A2 79 00 FF 00 FF FC FF
  can0  18FEBF0B   [8]  00 00 7D 7D 7D 7D FF FF
  can0  0CF00400   [8]  00 7D 7D 00 00 00 FF 7D
  can0  0628A001   [8]  FF FF FF FF FF DF FF C0
  can0  0038A00C   [8]  2C 83 3E 8E 03 42 80 48
  can0  0810A000   [4]  00 FE 08 00
  can0  0A18A006   [8]  00 00 00 00 00 10 00 10
  can0  0010A006   [8]  00 00 00 00 00 00 00 00
  can0  0218A006   [8]  00 00 00 00 00 00 00 00
  can0  18FF2100   [8]  C3 10 A0 01 00 01 10 C0
  can0  0CF00300   [8]  D1 00 00 FF FF FF 00 FF
  can0  0628A001   [8]  FF FF FF FF FF DF FF C0
  can0  0CF00400   [8]  00 7D 7D 00 00 00 FF 7D
  can0  18FEF100   [8]  C7 00 00 04 01 00 00 C0
  can0  0A1CA001   [8]  F0 FF FF FC FF 13 8E F9
  can0  0A18A001   [8]  FF FF FF FF FF FF FF FB
  can0  0038A00C   [8]  2C 83 3E 8E 04 42 80 48
  can0  18FF0072   [8]  00 E0 FF 00 00 00 00 00
  can0  0810A000   [4]  00 FE 0C 00
  can0  0C010321   [8]  00 00 00 00 00 00 00 00
  can0  0CFE6CEE   [8]  00 00 00 00 00 00 00 00
  can0  18FEE6EE   [8]  7C 13 0C 05 6C 1E 7D 7D
  can0  18FFC321   [8]  00 00 40 00 00 04 FF AF
  can0  18F0010B   [8]  00 00 F3 FF FF CD FF 0F
  can0  0010A006   [8]  00 00 00 00 00 00 00 00
  can0  08FE6E0B   [8]  00 00 00 00 00 00 00 00
  can0  0210A006   [8]  FF 00 FF 00 00 00 00 00
  can0  18FE4F0B   [8]  C4 00 FF FF FF FF FF FF
  can0  0CF00400   [8]  00 7D 7D 00 00 00 FF 7D
  can0  0628A001   [8]  FF FF FF FF FF DF FF C0
  can0  0038A00C   [8]  2C 83 3E 8E 05 42 80 48
  can0  0810A000   [4]  00 FE 00 00
  can0  0010A006   [8]  00 00 00 00 00 00 00 00
  can0  0218A006   [8]  00 00 00 00 00 00 00 00
  can0  18F0090B   [8]  98 96 60 79 7D 3F 7C 7A
  can0  18EBFF00   [8]  03 DC 80 BB FF FA 72 01
  can0  0628A001   [8]  FF FF FF FF FF DF FF C0
  can0  0CF00400   [8]  00 7D 7D 00 00 00 FF 7D
  can0  0038A00C   [8]  2C 83 3E 8E 06 42 80 48
  can0  0810A000   [4]  00 FE 04 00
  can0  0CFE6CEE   [8]  00 00 00 00 00 00 00 00
  can0  18F0010B   [8]  00 00 F3 FF FF CD FF 0F
  can0  0010A006   [8]  00 00 00 00 00 00 00 00
  can0  08FE6E0B   [8]  00 00 00 00 00 00 00 00
  can0  0210A006   [8]  FF 02 FF 00 00 00 00 00
  can0  0CF00400   [8]  00 7D 7D 00 00 00 FF 7D
  can0  0628A001   [8]  FF FF FF FF FF DF FF C0
  can0  0038A00C   [8]  2C 83 3E 8E 07 42 80 48
  can0  18FF6121   [8]  00 00 10 00 00 00 00 00
  can0  0810A000   [4]  00 FE 08 00
  can0  0A18A000   [8]  F3 00 48 00 02 00 20 00
  can0  0010A006   [8]  00 00 00 00 00 00 00 00
  can0  0218A006   [8]  00 00 00 00 00 00 00 00
  can0  0CF00400   [8]  00 7D 7D 00 00 00 FF 7D
  can0  0628A001   [8]  FF FF FF FF FF DF FF C0
  can0  0038A00C   [8]  2C 83 3E 8E 08 42 80 48
  can0  0810A000   [4]  00 FE 0C 00
  can0  0818A000   [8]  C7 2F 00 B0 A4 95 40 00
  can0  0CFE6CEE   [8]  00 00 00 00 00 00 00 00
  can0  0C00100B   [8]  DC FF FF FF FF FF FF FF
  can0  0010A006   [8]  00 00 00 00 00 00 00 00
  can0  08FE6E0B   [8]  00 00 00 00 00 00 00 00
  can0  18F0010B   [8]  00 00 F3 FF FF CD FF 0F
  can0  0210A006   [8]  FF 04 FF 00 00 00 00 00
  can0  18FF2100   [8]  C3 10 A0 01 00 01 10 C0
  can0  0CF00300   [8]  D1 00 00 FF FF FF 00 FF
  can0  0628A001   [8]  FF FF FF FF FF DF FF C0
  can0  0A1CA001   [8]  F0 FF FF FC FF 13 8E F9
  can0  0CF00400   [8]  00 7D 7D 00 00 00 FF 7D
  can0  0A18A001   [8]  FF FF FF FF FF FF FF FB
  can0  0038A00C   [8]  2C 83 3E 8E 09 42 80 48
  can0  18FF0072   [8]  00 E0 FF 00 00 00 00 00
  can0  0810A000   [4]  00 FE 00 00
  can0  0A28A000   [4]  00 00 00 58
  can0  0C010321   [8]  00 00 00 00 00 00 00 00
  can0  18FFC321   [8]  00 00 40 00 00 04 FF AF
  can0  0010A006   [8]  00 00 00 00 00 00 00 00
  can0  0218A006   [8]  00 00 00 00 00 00 00 00
  can0  0CF00400   [8]  00 7D 7D 00 00 00 FF 7D
  can0  0628A001   [8]  FF FF FF FF FF DF FF C0
  can0  0038A00C   [8]  2C 83 3E 8E 0A 42 80 48
  can0  0810A000   [4]  00 FE 04 00
  can0  0A18A00C   [1]  00
  can0  0CFE6CEE   [8]  00 00 00 00 00 00 00 00
  can0  18F0010B   [8]  00 00 F3 FF FF CD FF 0F
  can0  0010A006   [8]  00 00 00 00 00 00 00 00
  can0  08FE6E0B   [8]  00 00 00 00 00 00 00 00
  can0  0210A006   [8]  FF 06 FF 00 00 00 00 00
  can0  18EBFF00   [8]  04 80 BB 02 FF FF FF FF
  can0  0CF00400   [8]  00 7D 7D 00 00 00 FF 7D
  can0  0628A001   [8]  FF FF FF FF FF DF FF C0
  can0  18FEF200   [8]  00 00 00 FB 00 00 FF FF
  can0  0816A101   [8]  00 00 8F C0 00 00 00 00
  can0  0038A00C   [8]  2C 83 3E 8E 0B 42 80 48
  can0  0810A000   [4]  00 FE 08 00
  can0  18FFC521   [8]  C5 1C 00 00 00 00 00 00
  can0  0C00000B   [8]  DC 00 FF FF FF FF FF FF
  can0  0010A006   [8]  00 00 00 00 00 00 00 00
  can0  0218A006   [8]  00 00 00 00 00 00 00 00
  can0  1CECFF00   [8]  20 12 00 03 FF CA FE 00
  can0  0628A001   [8]  FF FF FF FF FF DF FF C0
  can0  0CF00400   [8]  00 7D 7D 00 00 00 FF 7D
  can0  0038A00C   [8]  2C 83 3E 8E 0C 42 80 48
  can0  18FF6121   [8]  00 00 20 00 00 00 00 00
  can0  0810A000   [4]  00 FE 0C 00
  can0  0C1CA000   [8]  00 00 68 00 00 00 00 00
  can0  0CFE6CEE   [8]  00 00 00 00 00 00 00 00
  can0  18F0010B   [8]  00 00 F3 FF FF CD FF 0F
  can0  0010A006   [8]  00 00 00 00 00 00 00 00
  can0  08FE6E0B   [8]  00 00 00 00 00 00 00 00
  can0  0210A006   [8]  FF 08 FF 00 00 00 00 00
  can0  0CF0130B   [8]  A2 79 00 FF 00 FF FC FF
  can0  18FEBF0B   [8]  00 00 7D 7D 7D 7D FF FF
  can0  0CF00400   [8]  00 7D 7D 00 00 00 FF 7D
  can0  0628A001   [8]  FF FF FF FF FF DF FF C0
  can0  0038A00C   [8]  2C 83 3E 8E 0D 42 80 48
  can0  0810A000   [4]  00 FE 00 00
  can0  0A18A006   [8]  00 00 00 00 00 10 00 10
  can0  0010A006   [8]  00 00 00 00 00 00 00 00
  can0  0218A006   [8]  00 00 00 00 00 00 00 00
  can0  18FF2100   [8]  C3 10 A0 01 00 01 10 C0
  can0  0CF00300   [8]  D1 00 00 FF FF FF 00 FF
  can0  0628A001   [8]  FF FF FF FF FF DF FF C0
  can0  0CF00400   [8]  00 7D 7D 00 00 00 FF 7D
  can0  18FEF100   [8]  C7 00 00 04 01 00 00 C0
  can0  0A1CA001   [8]  F0 FF FF FC FF 13 8E F9
  can0  0A18A001   [8]  FF FF FF FF FF FF FF FB
  can0  0038A00C   [8]  2C 83 3E 8E 0E 42 80 48
  can0  18FF0072   [8]  00 E0 FF 00 00 00 00 00
  can0  0810A000   [4]  00 FE 04 00
  can0  0C010321   [8]  00 00 00 00 00 00 00 00
  can0  0CFE6CEE   [8]  00 00 00 00 00 00 00 00
  can0  18FFC321   [8]  00 00 40 00 00 04 FF AF
  can0  18F0010B   [8]  00 00 F3 FF FF CD FF 0F
  can0  0010A006   [8]  00 00 00 00 00 00 00 00
  can0  08FE6E0B   [8]  00 00 00 00 00 00 00 00
  can0  0210A006   [8]  FF 0A FF 00 00 00 00 00
  can0  18FE4F0B   [8]  C4 00 FF FF FF FF FF FF
  can0  0CF00400   [8]  00 7D 7D 00 00 00 FF 7D
  can0  0628A001   [8]  FF FF FF FF FF DF FF C0
  can0  0038A00C   [8]  2C 83 3E 8E 0F 42 80 48
  can0  0810A000   [4]  00 FE 08 00
  can0  0010A006   [8]  00 00 00 00 00 00 00 00
  can0  0218A006   [8]  00 00 00 00 00 00 00 00
  can0  18F0090B   [8]  98 96 60 81 7D 5F 7C 7A
  can0  0CF00400   [8]  00 7D 7D 00 00 00 FF 7D
  can0  0628A001   [8]  FF FF FF FF FF DF FF C0
  can0  0038A00C   [8]  2C 83 3E 8E 00 42 80 48
  can0  0810A000   [4]  00 FE 0C 00
  can0  0CFE6CEE   [8]  00 00 00 00 00 00 00 00
  can0  18F0010B   [8]  00 00 F3 FF FF CD FF 0F
  can0  0010A006   [8]  00 00 00 00 00 00 00 00
  can0  08FE6E0B   [8]  00 00 00 00 00 00 00 00
  can0  0210A006   [8]  FF 0C FF 00 00 00 00 00
  can0  1CEBFF00   [8]  01 47 FF 1D 06 43 02 01
  can0  0628A001   [8]  FF FF FF FF FF DF FF C0
  can0  0CF00400   [8]  00 7D 7D 00 00 00 FF 7D
  can0  0038A00C   [8]  2C 83 3E 8E 01 42 80 48
  can0  18FF6121   [8]  00 00 00 00 00 00 00 00
  can0  0810A000   [4]  00 FE 00 00
  can0  0A18A000   [8]  F3 00 48 00 02 00 20 00
  can0  0010A006   [8]  00 00 00 00 00 00 00 00
  can0  0218A006   [8]  00 00 00 00 00 00 00 00
  can0  0CF00400   [8]  00 7D 7D 00 00 00 FF 7D
  can0  0628A001   [8]  FF FF FF FF FF DF FF C0
  can0  0038A00C   [8]  2C 83 3E 8E 02 42 80 48
  can0  0810A000   [4]  00 FE 04 00
  can0  0818A000   [8]  C7 2F 00 B0 A4 95 40 00
  can0  0CFE6CEE   [8]  00 00 00 00 00 00 00 00
  can0  18F0010B   [8]  00 00 F3 FF FF CD FF 0F
  can0  0010A006   [8]  00 00 00 00 00 00 00 00
  can0  08FE6E0B   [8]  00 00 00 00 00 00 00 00
  can0  0210A006   [8]  FF 0E FF 00 00 00 00 00
  can0  18FF2100   [8]  C3 10 A0 01 00 01 10 C0
  can0  0628A001   [8]  FF FF FF FF FF DF FF C0
  can0  0A1CA001   [8]  F0 FF FF FC FF 13 8E F9
  can0  0CF00300   [8]  D1 00 00 FF FF FF 00 FF
  can0  0A18A001   [8]  FF FF FF FF FF FF FF FB
  can0  0CF00400   [8]  00 7D 7D 00 00 00 FF 7D
  can0  18FEDF00   [8]  89 00 00 00 7D 00 00 F0
  can0  0038A00C   [8]  2C 83 3E 8E 03 42 80 48
  can0  18FF0072   [8]  00 E0 FF 00 00 00 00 00
  can0  0810A000   [4]  00 FE 08 00
  can0  0A28A000   [4]  00 00 00 58
  can0  0C010321   [8]  00 00 00 00 00 00 00 00
  can0  18FFC321   [8]  00 00 40 00 00 04 FF AF
  can0  0010A006   [8]  00 00 00 00 00 00 00 00
  can0  0218A006   [8]  00 00 00 00 00 00 00 00
  can0  0CF00400   [8]  00 7D 7D 00 00 00 FF 7D
  can0  0628A001   [8]  FF FF FF FF FF DF FF C0
  can0  0038A00C   [8]  2C 83 3E 8E 04 42 80 48
  can0  0810A000   [4]  00 FE 0C 00
  can0  0CFE6CEE   [8]  00 00 00 00 00 00 00 00
  can0  18F0010B   [8]  00 00 F3 FF FF CD FF 0F
  can0  0010A006   [8]  00 00 00 00 00 00 00 00
  can0  08FE6E0B   [8]  00 00 00 00 00 00 00 00
  can0  0210A006   [8]  FF 00 FF 00 00 00 00 00
  can0  0CF00400   [8]  00 7D 7D 00 00 00 FF 7D
  can0  0628A001   [8]  FF FF FF FF FF DF FF C0
  can0  18FEF200   [8]  00 00 00 FB 00 00 FF FF
  can0  0816A101   [8]  00 00 8F C0 00 00 00 00
  can0  0038A00C   [8]  2C 83 3E 8E 05 42 80 48
  can0  0810A000   [4]  00 FE 00 00
  can0  18FFC521   [8]  C5 1C 00 00 00 00 00 00
  can0  0C00000B   [8]  DC 00 FF FF FF FF FF FF
  can0  0218A006   [8]  00 00 00 00 00 00 00 00
  can0  0010A006   [8]  00 00 00 00 00 00 00 00
  can0  1CEBFF00   [8]  02 01 34 03 00 01 21 02
  can0  0628A001   [8]  FF FF FF FF FF DF FF C0
  can0  0CF00400   [8]  00 7D 7D 00 00 00 FF 7D
  can0  0038A00C   [8]  2C 83 3E 8E 06 42 80 48
  can0  18FF6121   [8]  00 00 10 00 00 00 00 00
  can0  0810A000   [4]  00 FE 04 00
  can0  0CFE6CEE   [8]  00 00 00 00 00 00 00 00
  can0  18F0010B   [8]  00 00 F3 FF FF CD FF 0F
  can0  0010A006   [8]  00 00 00 00 00 00 00 00
  can0  08FE6E0B   [8]  00 00 00 00 00 00 00 00
  can0  0210A006   [8]  FF 02 FF 00 00 00 00 00
  can0  0CF0130B   [8]  A2 79 00 FF 00 FF FC FF
  can0  18FEBF0B   [8]  00 00 7D 7D 7D 7D FF FF
  can0  0CF00400   [8]  00 7D 7D 00 00 00 FF 7D
  can0  0628A001   [8]  FF FF FF FF FF DF FF C0
  can0  0038A00C   [8]  2C 83 3E 8E 07 42 80 48
  can0  0810A000   [4]  00 FE 08 00
  can0  0A18A006   [8]  00 00 00 00 00 10 00 10
  can0  0010A006   [8]  00 00 00 00 00 00 00 00
  can0  0218A006   [8]  00 00 00 00 00 00 00 00
  can0  18FF2100   [8]  C3 10 A0 01 00 01 10 C0
  can0  0628A001   [8]  FF FF FF FF FF DF FF C0
  can0  0CF00300   [8]  D1 00 00 FF FF FF 00 FF
  can0  0CF00400   [8]  00 7D 7D 00 00 00 FF 7D
  can0  18FEF100   [8]  C7 00 00 04 01 00 00 C0
  can0  0A1CA001   [8]  F0 FF FF FC FF 13 8E F9
  can0  0A18A001   [8]  FF FF FF FF FF FF FF FB
  can0  0038A00C   [8]  2C 83 3E 8E 08 42 80 48
  can0  18FF0072   [8]  00 E0 FF 00 00 00 00 00
  can0  0C010321   [8]  00 00 00 00 00 00 00 00
  can0  0810A000   [4]  00 FE 0C 00
  can0  0CFE6CEE   [8]  00 00 00 00 00 00 00 00
  can0  18FFC321   [8]  00 00 40 00 00 04 FF AF
  can0  18F0010B   [8]  00 00 F3 FF FF CD FF 0F
  can0  0010A006   [8]  00 00 00 00 00 00 00 00
  can0  08FE6E0B   [8]  00 00 00 00 00 00 00 00
  can0  0210A006   [8]  FF 04 FF 00 00 00 00 00
  can0  18FE4F0B   [8]  C4 00 FF FF FF FF FF FF
  can0  0CF00400   [8]  00 7D 7D 00 00 00 FF 7D
  can0  0628A001   [8]  FF FF FF FF FF DF FF C0
  can0  0038A00C   [8]  2C 83 3E 8E 09 42 80 48
  can0  0810A000   [4]  00 FE 00 00
  can0  0010A006   [8]  00 00 00 00 00 00 00 00
  can0  0218A006   [8]  00 00 00 00 00 00 00 00
  can0  18F0090B   [8]  98 96 60 79 7D 5F 7C 7A
  can0  0CF00400   [8]  00 7D 7D 00 00 00 FF 7D
  can0  0628A001   [8]  FF FF FF FF FF DF FF C0
  can0  0038A00C   [8]  2C 83 3E 8E 0A 42 80 48
  can0  0810A000   [4]  00 FE 04 00
  can0  0CFE6CEE   [8]  00 00 00 00 00 00 00 00
  can0  18F0010B   [8]  00 00 F3 FF FF CD FF 0F
  can0  0010A006   [8]  00 00 00 00 00 00 00 00
  can0  08FE6E0B   [8]  00 00 00 00 00 00 00 00
  can0  0210A006   [8]  FF 06 FF 00 00 00 00 00
  can0  1CEBFF00   [8]  03 52 24 15 02 FF FF FF
  can0  0CF00400   [8]  00 7D 7D 00 00 00 FF 7D
  can0  0628A001   [8]  FF FF FF FF FF DF FF C0
  can0  0038A00C   [8]  2C 83 3E 8E 0B 42 80 48
  can0  18FF6121   [8]  00 00 20 00 00 00 00 00
  can0  0810A000   [4]  00 FE 08 00
  can0  0A18A000   [8]  F3 00 48 00 02 00 20 00
  can0  0010A006   [8]  00 00 00 00 00 00 00 00
  can0  0218A006   [8]  00 00 00 00 00 00 00 00
  can0  0CF00400   [8]  00 7D 7D 00 00 00 FF 7D
  can0  0628A001   [8]  FF FF FF FF FF DF FF C0
  can0  0038A00C   [8]  2C 83 3E 8E 0C 42 80 48
  can0  0810A000   [4]  00 FE 0C 00
  can0  0818A000   [8]  C7 2F 00 B0 A4 95 40 00
  can0  0CFE6CEE   [8]  00 00 00 00 00 00 00 00
  can0  0C00100B   [8]  DC FF FF FF FF FF FF FF
  can0  0010A006   [8]  00 00 00 00 00 00 00 00
  can0  08FE6E0B   [8]  00 00 00 00 00 00 00 00
  can0  18F0010B   [8]  00 00 F3 FF FF CD FF 0F
  can0  0210A006   [8]  FF 08 FF 00 00 00 00 00
  can0  18FF2100   [8]  C3 10 A0 01 00 01 10 C0
  can0  0CF00300   [8]  D1 00 00 FF FF FF 00 FF
  can0  0628A001   [8]  FF FF FF FF FF DF FF C0
  can0  0A1CA001   [8]  F0 FF FF FC FF 13 8E F9
  can0  0CF00400   [8]  00 7D 7D 00 00 00 FF 7D
  can0  0A18A001   [8]  FF FF FF FF FF FF FF FB
  can0  0038A00C   [8]  2C 83 3E 8E 0D 42 80 48
  can0  18FF0072   [8]  00 E0 FF 00 00 00 00 00
  can0  0810A000   [4]  00 FE 00 00
  can0  0A28A000   [4]  00 00 00 58
  can0  0C010321   [8]  00 00 00 00 00 00 00 00
  can0  18FFC321   [8]  00 00 40 00 00 04 FF AF
  can0  0010A006   [8]  00 00 00 00 00 00 00 00
  can0  0218A006   [8]  00 00 00 00 00 00 00 00
  can0  0CF00400   [8]  00 7D 7D 00 00 00 FF 7D
  can0  0628A001   [8]  FF FF FF FF FF DF FF C0
  can0  0038A00C   [8]  2C 83 3E 8E 0E 42 80 48
  can0  0810A000   [4]  00 FE 04 00
  can0  0CFE6CEE   [8]  00 00 00 00 00 00 00 00
  can0  18F0010B   [8]  00 00 F3 FF FF CD FF 0F
  can0  0010A006   [8]  00 00 00 00 00 00 00 00
  can0  08FE6E0B   [8]  00 00 00 00 00 00 00 00
  can0  0210A006   [8]  FF 0A FF 00 00 00 00 00
  can0  0CF00400   [8]  00 7D 7D 00 00 00 FF 7D
  can0  0628A001   [8]  FF FF FF FF FF DF FF C0
  can0  18FEF200   [8]  00 00 00 FB 00 00 FF FF
  can0  0816A101   [8]  00 00 8F C0 00 00 00 00
  can0  0038A00C   [8]  2C 83 3E 8E 0F 42 80 48
  can0  0810A000   [4]  00 FE 08 00
  can0  18FFC521   [8]  C5 1C 00 00 00 00 00 00
  can0  0C00000B   [8]  DC 00 FF FF FF FF FF FF
  can0  0010A006   [8]  00 00 00 00 00 00 00 00
  can0  0218A006   [8]  00 00 00 00 00 00 00 00
  can0  0CF00400   [8]  00 7D 7D 00 00 00 FF 7D
  can0  0628A001   [8]  FF FF FF FF FF DF FF C0
  can0  0038A00C   [8]  2C 83 3E 8E 00 42 80 48
  can0  18FF6121   [8]  00 00 00 00 00 00 00 00
  can0  0810A000   [4]  00 FE 0C 00
  can0  0CFE6CEE   [8]  00 00 00 00 00 00 00 00
  can0  18F0010B   [8]  00 00 F3 FF FF CD FF 0F
  can0  0010A006   [8]  00 00 00 00 00 00 00 00
  can0  08FE6E0B   [8]  00 00 00 00 00 00 00 00
  can0  0210A006   [8]  FF 0C FF 00 00 00 00 00
  can0  0CF0130B   [8]  A2 79 00 FF 00 FF FC FF
  can0  18FEBF0B   [8]  00 00 7D 7D 7D 7D FF FF
  can0  0CF00400   [8]  00 7D 7D 00 00 00 FF 7D
  can0  0628A001   [8]  FF FF FF FF FF DF FF C0
  can0  0038A00C   [8]  2C 83 3E 8E 01 42 80 48
  can0  0810A000   [4]  00 FE 00 00
  can0  0A18A006   [8]  00 00 00 00 00 10 00 10
  can0  0010A006   [8]  00 00 00 00 00 00 00 00
  can0  0218A006   [8]  00 00 00 00 00 00 00 00
  can0  18FF2100   [8]  C3 10 A0 01 00 01 10 C0
  can0  0CF00300   [8]  D1 00 00 FF FF FF 00 FF
  can0  0628A001   [8]  FF FF FF FF FF DF FF C0
  can0  0CF00400   [8]  00 7D 7D 00 00 00 FF 7D
  can0  18FEF100   [8]  C7 00 00 04 01 00 00 C0
  can0  0A1CA001   [8]  F0 FF FF FC FF 13 8E F9
  can0  0A18A001   [8]  FF FF FF FF FF FF FF FB
  can0  0038A00C   [8]  2C 83 3E 8E 02 42 80 48
  can0  18FF0072   [8]  00 E0 FF 00 00 00 00 00
  can0  0810A000   [4]  00 FE 04 00
  can0  0C010321   [8]  00 00 00 00 00 00 00 00
  can0  0CFE6CEE   [8]  00 00 00 00 00 00 00 00
  can0  18FFC321   [8]  00 00 40 00 00 04 FF AF
  can0  18F0010B   [8]  00 00 F3 FF FF CD FF 0F
  can0  0010A006   [8]  00 00 00 00 00 00 00 00
  can0  08FE6E0B   [8]  00 00 00 00 00 00 00 00
  can0  0210A006   [8]  FF 0E FF 00 00 00 00 00
  can0  18FE4F0B   [8]  C4 00 FF FF FF FF FF FF
  can0  0CF00400   [8]  00 7D 7D 00 00 00 FF 7D
  can0  0628A001   [8]  FF FF FF FF FF DF FF C0
  can0  0038A00C   [8]  2C 83 3E 8E 03 42 80 48
  can0  0810A000   [4]  00 FE 08 00
  can0  0A18A00C   [1]  00
  can0  0010A006   [8]  00 00 00 00 00 00 00 00
  can0  0218A006   [8]  00 00 00 00 00 00 00 00
  can0  18F0090B   [8]  98 96 60 99 7D 5F 7C 7A
  can0  0CF00400   [8]  00 7D 7D 00 00 00 FF 7D
  can0  0628A001   [8]  FF FF FF FF FF DF FF C0
  can0  0038A00C   [8]  2C 83 3E 8E 04 42 80 48
  can0  0810A000   [4]  00 FE 0C 00
  can0  0CFE6CEE   [8]  00 00 00 00 00 00 00 00
  can0  18F0010B   [8]  00 00 F3 FF FF CD FF 0F
  can0  0010A006   [8]  00 00 00 00 00 00 00 00
  can0  08FE6E0B   [8]  00 00 00 00 00 00 00 00
  can0  0210A006   [8]  FF 00 FF 00 00 00 00 00
  can0  0CF00400   [8]  00 7D 7D 00 00 00 FF 7D
  can0  0628A001   [8]  FF FF FF FF FF DF FF C0
  can0  0038A00C   [8]  2C 83 3E 8E 05 42 80 48
  can0  18FF6121   [8]  00 00 10 00 00 00 00 00
  can0  0810A000   [4]  00 FE 00 00
  can0  0A18A000   [8]  F3 00 48 00 02 00 20 00
  can0  0C1CA000   [8]  00 00 68 00 00 00 00 00
  can0  0010A006   [8]  00 00 00 00 00 00 00 00
  can0  0218A006   [8]  00 00 00 00 00 00 00 00
  can0  0CF00400   [8]  00 7D 7D 00 00 00 FF 7D
  can0  0628A001   [8]  FF FF FF FF FF DF FF C0
  can0  0038A00C   [8]  2C 83 3E 8E 06 42 80 48
  can0  0810A000   [4]  00 FE 04 00
  can0  0818A000   [8]  C7 2F 00 B0 A4 95 40 00
  can0  0CFE6CEE   [8]  00 00 00 00 00 00 00 00
  can0  18F0010B   [8]  00 00 F3 FF FF CD FF 0F
  can0  0010A006   [8]  00 00 00 00 00 00 00 00
  can0  08FE6E0B   [8]  00 00 00 00 00 00 00 00
  can0  0210A006   [8]  FF 02 FF 00 00 00 00 00
  can0  18FF2100   [8]  C3 10 A0 01 00 01 10 C0
  can0  0CF00300   [8]  D1 00 00 FF FF FF 00 FF
  can0  0628A001   [8]  FF FF FF FF FF DF FF C0
  can0  0A1CA001   [8]  F0 FF FF FC FF 13 8E F9
  can0  0CF00400   [8]  00 7D 7D 00 00 00 FF 7D
  can0  0A18A001   [8]  FF FF FF FF FF FF FF FB
  can0  0038A00C   [8]  2C 83 3E 8E 07 42 80 48
  can0  18FF0072   [8]  00 E0 FF 00 00 00 00 00
  can0  0810A000   [4]  00 FE 08 00
  can0  0A28A000   [4]  00 00 00 58
  can0  0C010321   [8]  00 00 00 00 00 00 00 00
  can0  18FFC321   [8]  00 00 40 00 00 04 FF AF
  can0  0010A006   [8]  00 00 00 00 00 00 00 00
  can0  0218A006   [8]  00 00 00 00 00 00 00 00
  can0  0CF00400   [8]  00 7D 7D 00 00 00 FF 7D
  can0  0628A001   [8]  FF FF FF FF FF DF FF C0
  can0  0038A00C   [8]  2C 83 3E 8E 08 42 80 48
  can0  0810A000   [4]  00 FE 0C 00
  can0  0CFE6CEE   [8]  00 00 00 00 00 00 00 00
  can0  18F0010B   [8]  00 00 F3 FF FF CD FF 0F
  can0  0010A006   [8]  00 00 00 00 00 00 00 00
  can0  08FE6E0B   [8]  00 00 00 00 00 00 00 00
  can0  0210A006   [8]  FF 04 FF 00 00 00 00 00
  can0  0CF00400   [8]  00 7D 7D 00 00 00 FF 7D
  can0  0628A001   [8]  FF FF FF FF FF DF FF C0
  can0  18FDB200   [8]  FF FF FF FF 00 FE FF FF
  can0  0816A101   [8]  00 00 8F C0 00 00 00 00
  can0  18FEF200   [8]  00 00 00 FB 00 00 FF FF
  can0  0038A00C   [8]  2C 83 3E 8E 09 42 80 48
  can0  0810A000   [4]  00 FE 00 00
  can0  18FFC521   [8]  C5 1C 00 00 00 00 00 00
  can0  0C00000B   [8]  DC 00 FF FF FF FF FF FF
  can0  0010A006   [8]  00 00 00 00 00 00 00 00
  can0  0218A006   [8]  00 00 00 00 00 00 00 00
  can0  0CF00400   [8]  00 7D 7D 00 00 00 FF 7D
  can0  0628A001   [8]  FF FF FF FF FF DF FF C0
  can0  0038A00C   [8]  2C 83 3E 8E 0A 42 80 48
  can0  18FF6121   [8]  00 00 20 00 00 00 00 00
  can0  0810A000   [4]  00 FE 04 00
  can0  0C24A000   [8]  00 39 00 00 00 00 72 00
  can0  0CFE6CEE   [8]  00 00 00 00 00 00 00 00
  can0  18F0010B   [8]  00 00 F3 FF FF CD FF 0F
  can0  0010A006   [8]  00 00 00 00 00 00 00 00
  can0  08FE6E0B   [8]  00 00 00 00 00 00 00 00
  can0  0210A006   [8]  FF 06 FF 00 00 00 00 00
  can0  0CF0130B   [8]  A2 79 00 FF 00 FF FC FF
  can0  18FEBF0B   [8]  00 00 7D 7D 7D 7D FF FF
  can0  0CF00400   [8]  00 7D 7D 00 00 00 FF 7D
  can0  0628A001   [8]  FF FF FF FF FF DF FF C0
  can0  0038A00C   [8]  2C 83 3E 8E 0B 42 80 48
  can0  0810A000   [4]  00 FE 08 00
  can0  0A18A006   [8]  00 00 00 00 00 10 00 10
  can0  0010A006   [8]  00 00 00 00 00 00 00 00
  can0  0218A006   [8]  00 00 00 00 00 00 00 00
  can0  18FF2100   [8]  C3 10 A0 01 00 01 10 C0
  can0  0628A001   [8]  FF FF FF FF FF DF FF C0
  can0  0CF00300   [8]  D1 00 00 FF FF FF 00 FF
  can0  0CF00400   [8]  00 7D 7D 00 00 00 FF 7D
  can0  18FEEF00   [8]  FF FF FF 19 FF FF FF FF
  can0  18FEF100   [8]  C7 00 00 04 01 00 00 C0
  can0  18FEF600   [8]  FF 32 48 32 FF 80 25 FF
  can0  18FEDF00   [8]  89 00 00 00 7D 00 00 F0
  can0  0A1CA001   [8]  F0 FF FF FC FF 13 8E F9
  can0  0A18A001   [8]  FF FF FF FF FF FF FF FB
  can0  0038A00C   [8]  2C 83 3E 8E 0C 42 80 48
  can0  18FF0072   [8]  00 E0 FF 00 00 00 00 00
  can0  0810A000   [4]  00 FE 0C 00
  can0  0C010321   [8]  00 00 00 00 00 00 00 00
  can0  0CFE6CEE   [8]  00 00 00 00 00 00 00 00
  can0  18FFC321   [8]  00 00 40 00 00 04 FF AF
  can0  18F0010B   [8]  00 00 F3 FF FF CD FF 0F
  can0  0010A006   [8]  00 00 00 00 00 00 00 00
  can0  08FE6E0B   [8]  00 00 00 00 00 00 00 00
  can0  0210A006   [8]  FF 08 FF 00 00 00 00 00
  can0  18FE4F0B   [8]  C4 00 FF FF FF FF FF FF
  can0  0CF00400   [8]  00 7D 7D 00 00 00 FF 7D
  can0  0628A001   [8]  FF FF FF FF FF DF FF C0
  can0  0038A00C   [8]  2C 83 3E 8E 0D 42 80 48
  can0  0810A000   [4]  00 FE 00 00
  can0  0010A006   [8]  00 00 00 00 00 00 00 00
  can0  0218A006   [8]  00 00 00 00 00 00 00 00
  can0  18F0090B   [8]  98 96 60 81 7D 5F 7C 7A
  can0  0CF00400   [8]  00 7D 7D 00 00 00 FF 7D
  can0  0628A001   [8]  FF FF FF FF FF DF FF C0
  can0  0038A00C   [8]  2C 83 3E 8E 0E 42 80 48
  can0  0810A000   [4]  00 FE 04 00
  can0  0CFE6CEE   [8]  00 00 00 00 00 00 00 00
  can0  18F0010B   [8]  00 00 F3 FF FF CD FF 0F
  can0  0010A006   [8]  00 00 00 00 00 00 00 00
  can0  08FE6E0B   [8]  00 00 00 00 00 00 00 00
  can0  0210A006   [8]  FF 0A FF 00 00 00 00 00
  can0  0CF00400   [8]  00 7D 7D 00 00 00 FF 7D
  can0  0628A001   [8]  FF FF FF FF FF DF FF C0
  can0  0038A00C   [8]  2C 83 3E 8E 0F 42 80 48
  can0  18FF6121   [8]  00 00 00 00 00 00 00 00
  can0  0810A000   [4]  00 FE 08 00
  can0  0A18A000   [8]  F3 00 48 00 02 00 20 00
  can0  0010A006   [8]  00 00 00 00 00 00 00 00
  can0  0218A006   [8]  00 00 00 00 00 00 00 00
  can0  0CF00400   [8]  00 7D 7D 00 00 00 FF 7D
  can0  0628A001   [8]  FF FF FF FF FF DF FF C0
  can0  0038A00C   [8]  2C 83 3E 8E 00 42 80 48
  can0  0810A000   [4]  00 FE 0C 00
  can0  0818A000   [8]  C7 2F 00 B0 A4 95 40 00
  can0  0CFE6CEE   [8]  00 00 00 00 00 00 00 00
  can0  0C00100B   [8]  DC FF FF FF FF FF FF FF
  can0  0010A006   [8]  00 00 00 00 00 00 00 00
  can0  08FE6E0B   [8]  00 00 00 00 00 00 00 00
  can0  18F0010B   [8]  00 00 F3 FF FF CD FF 0F
  can0  0210A006   [8]  FF 0C FF 00 00 00 00 00
  can0  18FF2100   [8]  C3 10 A0 01 00 01 10 C0
  can0  0CF00300   [8]  D1 00 00 FF FF FF 00 FF
  can0  0628A001   [8]  FF FF FF FF FF DF FF C0
  can0  0A1CA001   [8]  F0 FF FF FC FF 13 8E F9
  can0  0CF00400   [8]  00 7D 7D 00 00 00 FF 7D
  can0  0A18A001   [8]  FF FF FF FF FF FF FF FB
  can0  0038A00C   [8]  2C 83 3E 8E 01 42 80 48
  can0  18FF0072   [8]  00 E0 FF 00 00 00 00 00
  can0  0810A000   [4]  00 FE 00 00
  can0  0A28A000   [4]  00 00 00 58
  can0  0C010321   [8]  00 00 00 00 00 00 00 00
  can0  18FFC321   [8]  00 00 40 00 00 04 FF AF
  can0  18FECA0B   [8]  C3 FF 17 D0 86 7E FF FF
  can0  0010A006   [8]  00 00 00 00 00 00 00 00
  can0  0218A006   [8]  00 00 00 00 00 00 00 00
  can0  0CF00400   [8]  00 7D 7D 00 00 00 FF 7D
  can0  0628A001   [8]  FF FF FF FF FF DF FF C0
  can0  0038A00C   [8]  2C 83 3E 8E 02 42 80 48
  can0  0810A000   [4]  00 FE 04 00
  can0  0CFE6CEE   [8]  00 00 00 00 00 00 00 00
  can0  18F0010B   [8]  00 00 F3 FF FF CD FF 0F
  can0  0010A006   [8]  00 00 00 00 00 00 00 00
  can0  08FE6E0B   [8]  00 00 00 00 00 00 00 00
  can0  0210A006   [8]  FF 0E FF 00 00 00 00 00
  can0  0CF00400   [8]  00 7D 7D 00 00 00 FF 7D
  can0  0628A001   [8]  FF FF FF FF FF DF FF C0
  can0  18FEF200   [8]  00 00 00 FB 00 00 FF FF
  can0  0816A101   [8]  00 00 8F C0 00 00 00 00
  can0  0038A00C   [8]  2C 83 3E 8E 03 42 80 48
  can0  0810A000   [4]  00 FE 08 00
  can0  18FFC521   [8]  C5 1C 00 00 00 00 00 00
  can0  0C00000B   [8]  DC 00 FF FF FF FF FF FF
  can0  0010A006   [8]  00 00 00 00 00 00 00 00
  can0  0218A006   [8]  00 00 00 00 00 00 00 00
  can0  0CF00400   [8]  00 7D 7D 00 00 00 FF 7D
  can0  0628A001   [8]  FF FF FF FF FF DF FF C0
  can0  18FECA21   [8]  FF FF 22 90 4A 04 FF FF
  can0  0038A00C   [8]  2C 83 3E 8E 04 42 80 48
  can0  18FF6121   [8]  00 00 10 00 00 00 00 00
  can0  0810A000   [4]  00 FE 0C 00
  can0  0CFE6CEE   [8]  00 00 00 00 00 00 00 00
  can0  18F0010B   [8]  00 00 F3 FF FF CD FF 0F
  can0  0010A006   [8]  00 00 00 00 00 00 00 00
  can0  08FE6E0B   [8]  00 00 00 00 00 00 00 00
  can0  0210A006   [8]  FF 00 FF 00 00 00 00 00
  can0  0CF0130B   [8]  A2 79 00 FF 00 FF FC FF
  can0  18FEBF0B   [8]  00 00 7D 7D 7D 7D FF FF
  can0  18FE700B   [8]  FF FF 00 FB FF FF FF FF
  can0  0CF00400   [8]  00 7D 7D 00 00 00 FF 7D
  can0  0628A001   [8]  FF FF FF FF FF DF FF C0
  can0  0038A00C   [8]  2C 83 3E 8E 05 42 80 48
  can0  0810A000   [4]  00 FE 00 00
  can0  0A18A006   [8]  00 00 00 00 00 10 00 10
  can0  0010A006   [8]  00 00 00 00 00 00 00 00
  can0  0218A006   [8]  00 00 00 00 00 00 00 00
  can0  18FF2100   [8]  C3 10 A0 01 00 01 10 C0
  can0  0628A001   [8]  FF FF FF FF FF DF FF C0
  can0  0CF00300   [8]  D1 00 00 FF FF FF 00 FF
  can0  0CF00400   [8]  00 7D 7D 00 00 00 FF 7D
  can0  18FEF100   [8]  C7 00 00 04 01 00 00 C0
  can0  0A1CA001   [8]  F0 FF FF FC FF 13 8E F9
  can0  0A18A001   [8]  FF FF FF FF FF FF FF FB
  can0  0038A00C   [8]  2C 83 3E 8E 06 42 80 48
  can0  18FF0072   [8]  00 E0 FF 00 00 00 00 00
  can0  0810A000   [4]  00 FE 04 00
  can0  0C010321   [8]  00 00 00 00 00 00 00 00
  can0  0CFE6CEE   [8]  00 00 00 00 00 00 00 00
  can0  18FFC321   [8]  00 00 40 00 00 04 FF AF
  can0  18F0010B   [8]  00 00 F3 FF FF CD FF 0F
  can0  0010A006   [8]  00 00 00 00 00 00 00 00
  can0  08FE6E0B   [8]  00 00 00 00 00 00 00 00
  can0  0210A006   [8]  FF 02 FF 00 00 00 00 00
  can0  18FE4F0B   [8]  C4 00 FF FF FF FF FF FF
  can0  0CF00400   [8]  00 7D 7D 00 00 00 FF 7D
  can0  0628A001   [8]  FF FF FF FF FF DF FF C0
  can0  0038A00C   [8]  2C 83 3E 8E 07 42 80 48
  can0  0810A000   [4]  00 FE 08 00
  can0  0010A006   [8]  00 00 00 00 00 00 00 00
  can0  0218A006   [8]  00 00 00 00 00 00 00 00
  can0  18F0090B   [8]  98 96 60 81 7D 5F 7C 7A
  can0  0CF00400   [8]  00 7D 7D 00 00 00 FF 7D
  can0  0628A001   [8]  FF FF FF FF FF DF FF C0
  can0  0038A00C   [8]  2C 83 3E 8E 08 42 80 48
  can0  0810A000   [4]  00 FE 0C 00
  can0  0CFE6CEE   [8]  00 00 00 00 00 00 00 00
  can0  18F0010B   [8]  00 00 F3 FF FF CD FF 0F
  can0  0010A006   [8]  00 00 00 00 00 00 00 00
  can0  08FE6E0B   [8]  00 00 00 00 00 00 00 00
  can0  0210A006   [8]  FF 04 FF 00 00 00 00 00
  can0  0CF00400   [8]  00 7D 7D 00 00 00 FF 7D
  can0  0628A001   [8]  FF FF FF FF FF DF FF C0
  can0  0038A00C   [8]  2C 83 3E 8E 09 42 80 48
  can0  18FF6121   [8]  00 00 20 00 00 00 00 00
  can0  0810A000   [4]  00 FE 00 00
  can0  0A18A000   [8]  F3 00 48 00 02 00 20 00
  can0  0010A006   [8]  00 00 00 00 00 00 00 00
  can0  0218A006   [8]  00 00 00 00 00 00 00 00
  can0  0CF00400   [8]  00 7D 7D 00 00 00 FF 7D
  can0  0628A001   [8]  FF FF FF FF FF DF FF C0
  can0  0038A00C   [8]  2C 83 3E 8E 0A 42 80 48
  can0  0810A000   [4]  00 FE 04 00
  can0  0818A000   [8]  C7 2F 00 B0 A4 95 40 00
  can0  0CFE6CEE   [8]  00 00 00 00 00 00 00 00
  can0  18F0010B   [8]  00 00 F3 FF FF CD FF 0F
  can0  0010A006   [8]  00 00 00 00 00 00 00 00
  can0  08FE6E0B   [8]  00 00 00 00 00 00 00 00
  can0  0210A006   [8]  FF 06 FF 00 00 00 00 00
  can0  18FF2100   [8]  C3 10 A0 01 00 01 10 C0
  can0  0CF00300   [8]  D1 00 00 FF FF FF 00 FF
  can0  0628A001   [8]  FF FF FF FF FF DF FF C0
  can0  0A1CA001   [8]  F0 FF FF FC FF 13 8E F9
  can0  0CF00400   [8]  00 7D 7D 00 00 00 FF 7D
  can0  0A18A001   [8]  FF FF FF FF FF FF FF FB
  can0  0038A00C   [8]  2C 83 3E 8E 0B 42 80 48
  can0  18FF0072   [8]  00 E0 FF 00 00 00 00 00
  can0  0810A000   [4]  00 FE 08 00
  can0  0A28A000   [4]  00 00 00 58
  can0  0C010321   [8]  00 00 00 00 00 00 00 00
  can0  18FFC321   [8]  00 00 40 00 00 04 FF AF
  can0  0010A006   [8]  00 00 00 00 00 00 00 00
  can0  0218A006   [8]  00 00 00 00 00 00 00 00
  can0  0CF00400   [8]  00 7D 7D 00 00 00 FF 7D
  can0  0628A001   [8]  FF FF FF FF FF DF FF C0
  can0  0038A00C   [8]  2C 83 3E 8E 0C 42 80 48
  can0  0810A000   [4]  00 FE 0C 00
  can0  0A18A00C   [1]  00
  can0  0CFE6CEE   [8]  00 00 00 00 00 00 00 00
  can0  18F0010B   [8]  00 00 F3 FF FF CD FF 0F
  can0  0010A006   [8]  00 00 00 00 00 00 00 00
  can0  08FE6E0B   [8]  00 00 00 00 00 00 00 00
  can0  0210A006   [8]  FF 08 FF 00 00 00 00 00
  can0  0CF00400   [8]  00 7D 7D 00 00 00 FF 7D
  can0  0628A001   [8]  FF FF FF FF FF DF FF C0
  can0  18FEF200   [8]  00 00 00 FB 00 00 FF FF
  can0  0816A101   [8]  00 00 8F C0 00 00 00 00
  can0  0038A00C   [8]  2C 83 3E 8E 0D 42 80 48
  can0  0810A000   [4]  00 FE 00 00
  can0  18FFC521   [8]  C5 1C 00 00 00 00 00 00
  can0  0C00000B   [8]  DC 00 FF FF FF FF FF FF
  can0  0010A006   [8]  00 00 00 00 00 00 00 00
  can0  0218A006   [8]  00 00 00 00 00 00 00 00
  can0  0CF00400   [8]  00 7D 7D 00 00 00 FF 7D
  can0  0628A001   [8]  FF FF FF FF FF DF FF C0
  can0  0038A00C   [8]  2C 83 3E 8E 0E 42 80 48
  can0  18FF6121   [8]  00 00 00 00 00 00 00 00
  can0  0810A000   [4]  00 FE 04 00
  can0  0C1CA000   [8]  00 00 68 00 00 00 00 00
  can0  0CFE6CEE   [8]  00 00 00 00 00 00 00 00
  can0  18F0010B   [8]  00 00 F3 FF FF CD FF 0F
  can0  0010A006   [8]  00 00 00 00 00 00 00 00
  can0  08FE6E0B   [8]  00 00 00 00 00 00 00 00
  can0  0210A006   [8]  FF 0A FF 00 00 00 00 00
  can0  0CF0130B   [8]  A2 79 00 FF 00 FF FC FF
  can0  18FEBF0B   [8]  00 00 7D 7D 7D 7D FF FF
  can0  0CF00400   [8]  00 7D 7D 00 00 00 FF 7D
  can0  0628A001   [8]  FF FF FF FF FF DF FF C0
  can0  0038A00C   [8]  2C 83 3E 8E 0F 42 80 48
  can0  0810A000   [4]  00 FE 08 00
